
T12BC 000:323 SEGGER J-Link V4.98e Log File (0001ms, 0298ms total)
T12BC 000:323 DLL Compiled: May  5 2015 11:00:52 (0001ms, 0298ms total)
T12BC 000:323 Logging started @ 2018-03-07 11:03 (0001ms, 0298ms total)
T12BC 000:324 JLINK_SetWarnOutHandler(...) (0000ms, 0298ms total)
T12BC 000:324 JLINK_OpenEx(...)
Firmware: J-Link ARM V8 compiled Nov 28 2014 13:44:46
Hardware: V8.00
S/N: 304439649
Feature(s): RDI,FlashDL,FlashBP,JFlash,GDBFULL  returns O.K. (0278ms, 0576ms total)
T12BC 000:602 JLINK_SetErrorOutHandler(...) (0000ms, 0576ms total)
T12BC 000:602 JLINK_ExecCommand("ProjectFile = "D:\Develop\Sources\Keil\A8107\projects\sample\JLinkSettings.ini"", ...)Device "UNSPECIFIED" selected.  returns 0x00 (0027ms, 0603ms total)
T12BC 000:632 JLINK_ExecCommand("Device = A8107M0", ...)Device "UNSPECIFIED" selected.  returns 0x00 (0003ms, 0606ms total)
T12BC 000:635 JLINK_ExecCommand("DisableConnectionTimeout", ...)  returns 0x01 (0000ms, 0606ms total)
T12BC 000:635 JLINK_GetHardwareVersion()  returns 0x13880 (0000ms, 0606ms total)
T12BC 000:635 JLINK_GetDLLVersion()  returns 49805 (0000ms, 0606ms total)
T12BC 000:635 JLINK_GetFirmwareString(...) (0000ms, 0606ms total)
T12BC 000:642 JLINK_GetDLLVersion()  returns 49805 (0000ms, 0606ms total)
T12BC 000:642 JLINK_GetCompileDateTime() (0000ms, 0606ms total)
T12BC 000:644 JLINK_GetFirmwareString(...) (0000ms, 0606ms total)
T12BC 000:647 JLINK_GetHardwareVersion()  returns 0x13880 (0000ms, 0606ms total)
T12BC 000:657 JLINK_TIF_Select(JLINKARM_TIF_SWD)  returns 0x00 (0003ms, 0609ms total)
T12BC 000:660 JLINK_SetSpeed(5000) (0001ms, 0610ms total)
T12BC 000:661 JLINK_GetId() >0x108 TIF> >0x108 TIF> >0x108 TIF>Found SWD-DP with ID 0x0BB11477SWD speed too high. Reduced from 4000 kHz to 2700 kHz for stability >0x0D TIF> >0x21 TIF> >0x0D TIF> >0x28 TIF> >0x0D TIF> >0x28 TIF> >0x0D TIF> >0x21 TIF> >0x0D TIF> >0x28 TIF> >0x0D TIF> >0x21 TIF> >0x0D TIF> >0x21 TIF> >0x0D TIF> >0x21 TIF> >0x0D TIF> >0x21 TIF> >0x0D TIF> >0x28 TIF> >0x0D TIF> >0x28 TIF> >0x0D TIF> >0x21 TIF> >0x0D TIF> >0x28 TIF> >0x0D TIF> >0x28 TIF> >0x0D TIF> >0x28 TIF> >0x0D TIF>
 >0x21 TIF> >0x0D TIF> >0x21 TIF> >0x0D TIF> >0x28 TIF> >0x0D TIF> >0x21 TIF> >0x0D TIF> >0x21 TIF>Found Cortex-M0 r0p0, Little endian. -- CPU_WriteMem(4 bytes @ 0xE0002000) -- CPU_ReadMem(4 bytes @ 0xE000EDF0) -- CPU_WriteMem(4 bytes @ 0xE000EDF0) -- CPU_ReadMem(4 bytes @ 0xE0002000)FPUnit: 4 code (BP) slots and 0 literal slots -- CPU_ReadMem(4 bytes @ 0xE000EDFC) -- CPU_WriteMem(4 bytes @ 0xE000EDFC) -- CPU_ReadMem(4 bytes @ 0xE0001000) -- CPU_WriteMem(4 bytes @ 0xE0001000)CoreSight components:
ROMTbl 0 @ E00FF000 -- CPU_ReadMem(16 bytes @ 0xE00FF000) -- CPU_ReadMem(16 bytes @ 0xE000EFF0) -- CPU_ReadMem(16 bytes @ 0xE000EFE0)ROMTbl 0 [0]: FFF0F000, CID: B105E00D, PID: 000BB008 SCS -- CPU_ReadMem(16 bytes @ 0xE0001FF0) -- CPU_ReadMem(16 bytes @ 0xE0001FE0)ROMTbl 0 [1]: FFF02000, CID: B105E00D, PID: 000BB00A DWT -- CPU_ReadMem(16 bytes @ 0xE0002FF0) -- CPU_ReadMem(16 bytes @ 0xE0002FE0)ROMTbl 0 [2]: FFF03000, CID: B105E00D, PID: 000BB00B FPB >0x0D TIF> >0x21 TIF>  returns 0x0BB11477
 (0215ms, 0825ms total)
T12BC 000:876 JLINK_GetDLLVersion()  returns 49805 (0000ms, 0825ms total)
T12BC 000:876 JLINK_CORE_GetFound()  returns 0x60000FF (0000ms, 0825ms total)
T12BC 000:876 JLINK_GetDebugInfo(0x100) -- Value=0xE00FF003  returns 0x00 (0001ms, 0826ms total)
T12BC 000:879 JLINK_ReadMem (0xE00FF000, 0x0020 Bytes, ...) -- CPU is running -- CPU_ReadMem(32 bytes @ 0xE00FF000) - Data: 03 F0 F0 FF 03 20 F0 FF 03 30 F0 FF 00 00 00 00 ...  returns 0x00 (0001ms, 0827ms total)
T12BC 000:880 JLINK_ReadMem (0xE000EFF0, 0x0010 Bytes, ...) -- CPU is running -- CPU_ReadMem(16 bytes @ 0xE000EFF0) - Data: 0D 00 00 00 E0 00 00 00 05 00 00 00 B1 00 00 00  returns 0x00 (0001ms, 0828ms total)
T12BC 000:881 JLINK_ReadMem (0xE000EFD0, 0x0020 Bytes, ...) -- CPU is running -- CPU_ReadMem(32 bytes @ 0xE000EFD0) - Data: 04 00 00 00 00 00 00 00 00 00 00 00 00 00 00 00 ...  returns 0x00 (0002ms, 0830ms total)
T12BC 000:883 JLINK_ReadMem (0xE0001FF0, 0x0010 Bytes, ...) -- CPU is running -- CPU_ReadMem(16 bytes @ 0xE0001FF0) - Data: 0D 00 00 00 E0 00 00 00 05 00 00 00 B1 00 00 00  returns 0x00 (0001ms, 0831ms total)
T12BC 000:884 JLINK_ReadMem (0xE0001FD0, 0x0020 Bytes, ...) -- CPU is running -- CPU_ReadMem(32 bytes @ 0xE0001FD0) - Data: 04 00 00 00 00 00 00 00 00 00 00 00 00 00 00 00 ...  returns 0x00 (0001ms, 0832ms total)
T12BC 000:885 JLINK_ReadMem (0xE0002FF0, 0x0010 Bytes, ...) -- CPU is running -- CPU_ReadMem(16 bytes @ 0xE0002FF0) - Data: 0D 00 00 00 E0 00 00 00 05 00 00 00 B1 00 00 00  returns 0x00 (0001ms, 0833ms total)
T12BC 000:886 JLINK_ReadMem (0xE0002FD0, 0x0020 Bytes, ...) -- CPU is running -- CPU_ReadMem(32 bytes @ 0xE0002FD0) - Data: 04 00 00 00 00 00 00 00 00 00 00 00 00 00 00 00 ...  returns 0x00 (0001ms, 0834ms total)
T12BC 000:887 JLINK_ReadMemU32(0xE000ED00, 0x0001 Items, ...) -- CPU is running -- CPU_ReadMem(4 bytes @ 0xE000ED00) - Data: 00 C2 0C 41  returns 0x01 (0001ms, 0835ms total)
T12BC 000:888 JLINK_SetResetType(JLINKARM_RESET_TYPE_NORMAL)  returns JLINKARM_RESET_TYPE_NORMAL (0000ms, 0835ms total)
T12BC 000:888 JLINK_Reset() -- CPU is running -- CPU_WriteMem(4 bytes @ 0xE000EDF0) -- CPU is running -- CPU_WriteMem(4 bytes @ 0xE000EDFC) >0x35 TIF> -- CPU is running -- CPU_WriteMem(4 bytes @ 0xE000ED0C) -- CPU is running -- CPU_ReadMem(4 bytes @ 0xE000EDF0) -- CPU is running -- CPU_ReadMem(4 bytes @ 0xE000EDF0) -- CPU is running -- CPU_WriteMem(4 bytes @ 0xE000EDF0) -- CPU is running -- CPU_WriteMem(4 bytes @ 0xE000EDFC) -- CPU is running -- CPU_ReadMem(4 bytes @ 0xE000EDF0)
 -- CPU_WriteMem(4 bytes @ 0xE0002000) -- CPU_ReadMem(4 bytes @ 0xE000EDFC) -- CPU_ReadMem(4 bytes @ 0xE0001000) -- CPU_WriteMem(4 bytes @ 0xE0001000) (0024ms, 0859ms total)
T12BC 000:912 JLINK_Halt()  returns 0x00 (0000ms, 0859ms total)
T12BC 000:912 JLINK_IsHalted()  returns TRUE (0000ms, 0859ms total)
T12BC 000:913 JLINK_ReadMemU32(0xE000EDF0, 0x0001 Items, ...) -- CPU_ReadMem(4 bytes @ 0xE000EDF0) - Data: 03 00 03 00  returns 0x01 (0000ms, 0859ms total)
T12BC 000:913 JLINK_WriteU32(0xE000EDF0, 0xA05F0003) -- CPU_WriteMem(4 bytes @ 0xE000EDF0)  returns 0x00 (0001ms, 0860ms total)
T12BC 000:914 JLINK_WriteU32(0xE000EDFC, 0x01000000) -- CPU_WriteMem(4 bytes @ 0xE000EDFC)  returns 0x00 (0001ms, 0861ms total)
T12BC 000:925 JLINK_GetHWStatus(...)  returns 0x00 (0000ms, 0861ms total)
T12BC 000:934 JLINK_GetNumBPUnits(Type = 0xFFFFFF00)  returns 0x04 (0000ms, 0861ms total)
T12BC 000:934 JLINK_GetNumBPUnits(Type = 0xF0)  returns 0x2000 (0001ms, 0862ms total)
T12BC 000:935 JLINK_GetNumWPUnits()  returns 0x02 (0000ms, 0862ms total)
T12BC 000:941 JLINK_GetSpeed()  returns 0x7D0 (0000ms, 0862ms total)
T12BC 000:946 JLINK_ReadMemU32(0xE000E004, 0x0001 Items, ...) -- CPU_ReadMem(4 bytes @ 0xE000E004) - Data: 00 00 00 00  returns 0x01 (0000ms, 0862ms total)
T12BC 000:946 JLINK_Halt()  returns 0x00 (0000ms, 0862ms total)
T12BC 000:946 JLINK_IsHalted()  returns TRUE (0001ms, 0863ms total)
T12BC 000:951 JLINK_WriteMem(0x20000000, 0x0118 Bytes, ...) - Data: 00 BE 0A E0 0D 78 2D 06 68 40 08 24 40 00 00 D3 ... -- CPU_WriteMem(280 bytes @ 0x20000000)  returns 0x118 (0004ms, 0866ms total)
T12BC 000:955 JLINK_WriteReg(R0, 0x00000000)  returns 0x00 (0001ms, 0867ms total)
T12BC 000:956 JLINK_WriteReg(R1, 0x00B71B00)  returns 0x00 (0000ms, 0867ms total)
T12BC 000:956 JLINK_WriteReg(R2, 0x00000001)  returns 0x00 (0000ms, 0867ms total)
T12BC 000:956 JLINK_WriteReg(R3, 0x00000000)  returns 0x00 (0000ms, 0867ms total)
T12BC 000:956 JLINK_WriteReg(R4, 0x00000000)  returns 0x00 (0000ms, 0867ms total)
T12BC 000:956 JLINK_WriteReg(R5, 0x00000000)  returns 0x00 (0000ms, 0867ms total)
T12BC 000:956 JLINK_WriteReg(R6, 0x00000000)  returns 0x00 (0000ms, 0867ms total)
T12BC 000:956 JLINK_WriteReg(R7, 0x00000000)  returns 0x00 (0000ms, 0867ms total)
T12BC 000:956 JLINK_WriteReg(R8, 0x00000000)  returns 0x00 (0000ms, 0867ms total)
T12BC 000:956 JLINK_WriteReg(R9, 0x20000114)  returns 0x00 (0000ms, 0867ms total)
T12BC 000:956 JLINK_WriteReg(R10, 0x00000000)  returns 0x00 (0000ms, 0867ms total)
T12BC 000:956 JLINK_WriteReg(R11, 0x00000000)  returns 0x00 (0000ms, 0867ms total)
T12BC 000:956 JLINK_WriteReg(R12, 0x00000000)  returns 0x00 (0000ms, 0867ms total)
T12BC 000:956 JLINK_WriteReg(R13 (SP), 0x20001000)  returns 0x00 (0000ms, 0867ms total)
T12BC 000:956 JLINK_WriteReg(R14, 0x20000001)  returns 0x00 (0000ms, 0867ms total)
T12BC 000:956 JLINK_WriteReg(R15 (PC), 0x20000038)  returns 0x00 (0000ms, 0867ms total)
T12BC 000:956 JLINK_WriteReg(XPSR, 0x01000000)  returns 0x00 (0000ms, 0867ms total)
T12BC 000:956 JLINK_WriteReg(MSP, 0x20001000)  returns 0x00 (0000ms, 0867ms total)
T12BC 000:956 JLINK_WriteReg(PSP, 0x20001000)  returns 0x00 (0000ms, 0867ms total)
T12BC 000:956 JLINK_WriteReg(CFBP, 0x00000000)  returns 0x00 (0000ms, 0867ms total)
T12BC 000:956 JLINK_SetBPEx(Addr = 0x20000000, Type = 0xFFFFFFF2) -- CPU_ReadMem(4 bytes @ 0x20000000) -- CPU_WriteMem(4 bytes @ 0x20000000) -- CPU_ReadMem(4 bytes @ 0x20000000) -- CPU_WriteMem(4 bytes @ 0x20000000) -- CPU_ReadMem(2 bytes @ 0x20000000)  returns 0x00000001 (0005ms, 0872ms total)
T12BC 000:961 JLINK_Go() -- CPU_WriteMem(2 bytes @ 0x20000000) -- CPU_ReadMem(4 bytes @ 0xE0001000) -- CPU_WriteMem(4 bytes @ 0xE0001000) -- CPU_WriteMem(4 bytes @ 0xE0002008) -- CPU_WriteMem(4 bytes @ 0xE000200C) -- CPU_WriteMem(4 bytes @ 0xE0002010) -- CPU_WriteMem(4 bytes @ 0xE0002014) -- CPU_WriteMem(4 bytes @ 0xE0001004) (0011ms, 0883ms total)
T12BC 000:972 JLINK_IsHalted() -- CPU_ReadMem(2 bytes @ 0x20000000)  returns TRUE (0005ms, 0888ms total)
T12BC 000:977 JLINK_ReadReg(R15 (PC))  returns 0x20000000 (0000ms, 0883ms total)
T12BC 000:977 JLINK_ClrBPEx(BPHandle = 0x00000001)  returns 0x00 (0000ms, 0883ms total)
T12BC 000:978 JLINK_ReadReg(R0)  returns 0x00000000 (0000ms, 0884ms total)
T12BC 000:978 JLINK_WriteReg(R0, 0x00000000)  returns 0x00 (0000ms, 0884ms total)
T12BC 000:978 JLINK_WriteReg(R1, 0x00001000)  returns 0x00 (0000ms, 0884ms total)
T12BC 000:978 JLINK_WriteReg(R2, 0x000000FF)  returns 0x00 (0000ms, 0884ms total)
T12BC 000:978 JLINK_WriteReg(R3, 0x00000000)  returns 0x00 (0000ms, 0884ms total)
T12BC 000:978 JLINK_WriteReg(R4, 0x00000000)  returns 0x00 (0000ms, 0884ms total)
T12BC 000:978 JLINK_WriteReg(R5, 0x00000000)  returns 0x00 (0000ms, 0884ms total)
T12BC 000:978 JLINK_WriteReg(R6, 0x00000000)  returns 0x00 (0000ms, 0884ms total)
T12BC 000:978 JLINK_WriteReg(R7, 0x00000000)  returns 0x00 (0000ms, 0884ms total)
T12BC 000:978 JLINK_WriteReg(R8, 0x00000000)  returns 0x00 (0000ms, 0884ms total)
T12BC 000:978 JLINK_WriteReg(R9, 0x20000114)  returns 0x00 (0000ms, 0884ms total)
T12BC 000:978 JLINK_WriteReg(R10, 0x00000000)  returns 0x00 (0000ms, 0884ms total)
T12BC 000:978 JLINK_WriteReg(R11, 0x00000000)  returns 0x00 (0000ms, 0884ms total)
T12BC 000:978 JLINK_WriteReg(R12, 0x00000000)  returns 0x00 (0000ms, 0884ms total)
T12BC 000:978 JLINK_WriteReg(R13 (SP), 0x20001000)  returns 0x00 (0000ms, 0884ms total)
T12BC 000:978 JLINK_WriteReg(R14, 0x20000001)  returns 0x00 (0000ms, 0884ms total)
T12BC 000:978 JLINK_WriteReg(R15 (PC), 0x20000020)  returns 0x00 (0000ms, 0884ms total)
T12BC 000:978 JLINK_WriteReg(XPSR, 0x01000000)  returns 0x00 (0000ms, 0884ms total)
T12BC 000:978 JLINK_WriteReg(MSP, 0x20001000)  returns 0x00 (0000ms, 0884ms total)
T12BC 000:978 JLINK_WriteReg(PSP, 0x20001000)  returns 0x00 (0000ms, 0884ms total)
T12BC 000:978 JLINK_WriteReg(CFBP, 0x00000000)  returns 0x00 (0000ms, 0884ms total)
T12BC 000:978 JLINK_SetBPEx(Addr = 0x20000000, Type = 0xFFFFFFF2)  returns 0x00000002 (0000ms, 0884ms total)
T12BC 000:978 JLINK_Go() -- CPU_ReadMem(4 bytes @ 0xE0001000) -- CPU_WriteMem(4 bytes @ 0xE0001000) (0005ms, 0889ms total)
T12BC 000:983 JLINK_IsHalted() -- CPU_ReadMem(2 bytes @ 0x20000000)  returns TRUE (0005ms, 0894ms total)
T12BC 000:988 JLINK_ReadReg(R15 (PC))  returns 0x20000000 (0000ms, 0889ms total)
T12BC 000:988 JLINK_ClrBPEx(BPHandle = 0x00000002)  returns 0x00 (0000ms, 0889ms total)
T12BC 000:989 JLINK_ReadReg(R0)  returns 0x00000001 (0000ms, 0889ms total)
T12BC 000:989 JLINK_WriteReg(R0, 0x00000000)  returns 0x00 (0000ms, 0889ms total)
T12BC 000:989 JLINK_WriteReg(R1, 0x00001000)  returns 0x00 (0000ms, 0889ms total)
T12BC 000:989 JLINK_WriteReg(R2, 0x000000FF)  returns 0x00 (0000ms, 0889ms total)
T12BC 000:989 JLINK_WriteReg(R3, 0x00000000)  returns 0x00 (0000ms, 0889ms total)
T12BC 000:989 JLINK_WriteReg(R4, 0x00000000)  returns 0x00 (0000ms, 0889ms total)
T12BC 000:989 JLINK_WriteReg(R5, 0x00000000)  returns 0x00 (0000ms, 0889ms total)
T12BC 000:989 JLINK_WriteReg(R6, 0x00000000)  returns 0x00 (0000ms, 0889ms total)
T12BC 000:989 JLINK_WriteReg(R7, 0x00000000)  returns 0x00 (0000ms, 0889ms total)
T12BC 000:989 JLINK_WriteReg(R8, 0x00000000)  returns 0x00 (0000ms, 0889ms total)
T12BC 000:989 JLINK_WriteReg(R9, 0x20000114)  returns 0x00 (0000ms, 0889ms total)
T12BC 000:989 JLINK_WriteReg(R10, 0x00000000)  returns 0x00 (0000ms, 0889ms total)
T12BC 000:989 JLINK_WriteReg(R11, 0x00000000)  returns 0x00 (0000ms, 0889ms total)
T12BC 000:989 JLINK_WriteReg(R12, 0x00000000)  returns 0x00 (0000ms, 0889ms total)
T12BC 000:989 JLINK_WriteReg(R13 (SP), 0x20001000)  returns 0x00 (0000ms, 0889ms total)
T12BC 000:989 JLINK_WriteReg(R14, 0x20000001)  returns 0x00 (0000ms, 0889ms total)
T12BC 000:989 JLINK_WriteReg(R15 (PC), 0x2000007A)  returns 0x00 (0000ms, 0889ms total)
T12BC 000:989 JLINK_WriteReg(XPSR, 0x01000000)  returns 0x00 (0000ms, 0889ms total)
T12BC 000:989 JLINK_WriteReg(MSP, 0x20001000)  returns 0x00 (0000ms, 0889ms total)
T12BC 000:989 JLINK_WriteReg(PSP, 0x20001000)  returns 0x00 (0000ms, 0889ms total)
T12BC 000:989 JLINK_WriteReg(CFBP, 0x00000000)  returns 0x00 (0000ms, 0889ms total)
T12BC 000:989 JLINK_SetBPEx(Addr = 0x20000000, Type = 0xFFFFFFF2)  returns 0x00000003 (0000ms, 0889ms total)
T12BC 000:989 JLINK_Go() -- CPU_ReadMem(4 bytes @ 0xE0001000) -- CPU_WriteMem(4 bytes @ 0xE0001000) (0004ms, 0893ms total)
T12BC 000:993 JLINK_IsHalted()  returns FALSE (0001ms, 0894ms total)
T12BC 001:023 JLINK_IsHalted() -- CPU_ReadMem(2 bytes @ 0x20000000)  returns TRUE (0005ms, 0898ms total)
T12BC 001:028 JLINK_ReadReg(R15 (PC))  returns 0x20000000 (0000ms, 0893ms total)
T12BC 001:028 JLINK_ClrBPEx(BPHandle = 0x00000003)  returns 0x00 (0001ms, 0894ms total)
T12BC 001:029 JLINK_ReadReg(R0)  returns 0x00000000 (0000ms, 0894ms total)
T12BC 001:029 JLINK_WriteReg(R0, 0x00001000)  returns 0x00 (0000ms, 0894ms total)
T12BC 001:029 JLINK_WriteReg(R1, 0x00001000)  returns 0x00 (0000ms, 0894ms total)
T12BC 001:029 JLINK_WriteReg(R2, 0x000000FF)  returns 0x00 (0000ms, 0894ms total)
T12BC 001:029 JLINK_WriteReg(R3, 0x00000000)  returns 0x00 (0000ms, 0894ms total)
T12BC 001:029 JLINK_WriteReg(R4, 0x00000000)  returns 0x00 (0000ms, 0894ms total)
T12BC 001:029 JLINK_WriteReg(R5, 0x00000000)  returns 0x00 (0000ms, 0894ms total)
T12BC 001:029 JLINK_WriteReg(R6, 0x00000000)  returns 0x00 (0000ms, 0894ms total)
T12BC 001:029 JLINK_WriteReg(R7, 0x00000000)  returns 0x00 (0000ms, 0894ms total)
T12BC 001:029 JLINK_WriteReg(R8, 0x00000000)  returns 0x00 (0000ms, 0894ms total)
T12BC 001:029 JLINK_WriteReg(R9, 0x20000114)  returns 0x00 (0000ms, 0894ms total)
T12BC 001:029 JLINK_WriteReg(R10, 0x00000000)  returns 0x00 (0000ms, 0894ms total)
T12BC 001:029 JLINK_WriteReg(R11, 0x00000000)  returns 0x00 (0000ms, 0894ms total)
T12BC 001:029 JLINK_WriteReg(R12, 0x00000000)  returns 0x00 (0000ms, 0894ms total)
T12BC 001:029 JLINK_WriteReg(R13 (SP), 0x20001000)  returns 0x00 (0000ms, 0894ms total)
T12BC 001:029 JLINK_WriteReg(R14, 0x20000001)  returns 0x00 (0000ms, 0894ms total)
T12BC 001:029 JLINK_WriteReg(R15 (PC), 0x20000020)  returns 0x00 (0001ms, 0895ms total)
T12BC 001:030 JLINK_WriteReg(XPSR, 0x01000000)  returns 0x00 (0000ms, 0895ms total)
T12BC 001:030 JLINK_WriteReg(MSP, 0x20001000)  returns 0x00 (0000ms, 0895ms total)
T12BC 001:030 JLINK_WriteReg(PSP, 0x20001000)  returns 0x00 (0000ms, 0895ms total)
T12BC 001:030 JLINK_WriteReg(CFBP, 0x00000000)  returns 0x00 (0000ms, 0895ms total)
T12BC 001:030 JLINK_SetBPEx(Addr = 0x20000000, Type = 0xFFFFFFF2)  returns 0x00000004 (0000ms, 0895ms total)
T12BC 001:030 JLINK_Go() -- CPU_ReadMem(4 bytes @ 0xE0001000) -- CPU_WriteMem(4 bytes @ 0xE0001000) (0004ms, 0899ms total)
T12BC 001:034 JLINK_IsHalted() -- CPU_ReadMem(2 bytes @ 0x20000000)  returns TRUE (0005ms, 0904ms total)
T12BC 001:039 JLINK_ReadReg(R15 (PC))  returns 0x20000000 (0000ms, 0899ms total)
T12BC 001:039 JLINK_ClrBPEx(BPHandle = 0x00000004)  returns 0x00 (0000ms, 0899ms total)
T12BC 001:039 JLINK_ReadReg(R0)  returns 0x00000001 (0000ms, 0899ms total)
T12BC 001:039 JLINK_WriteReg(R0, 0x00001000)  returns 0x00 (0000ms, 0899ms total)
T12BC 001:039 JLINK_WriteReg(R1, 0x00001000)  returns 0x00 (0000ms, 0899ms total)
T12BC 001:039 JLINK_WriteReg(R2, 0x000000FF)  returns 0x00 (0000ms, 0899ms total)
T12BC 001:040 JLINK_WriteReg(R3, 0x00000000)  returns 0x00 (0000ms, 0899ms total)
T12BC 001:040 JLINK_WriteReg(R4, 0x00000000)  returns 0x00 (0000ms, 0899ms total)
T12BC 001:040 JLINK_WriteReg(R5, 0x00000000)  returns 0x00 (0000ms, 0899ms total)
T12BC 001:040 JLINK_WriteReg(R6, 0x00000000)  returns 0x00 (0000ms, 0899ms total)
T12BC 001:040 JLINK_WriteReg(R7, 0x00000000)  returns 0x00 (0000ms, 0899ms total)
T12BC 001:040 JLINK_WriteReg(R8, 0x00000000)  returns 0x00 (0000ms, 0899ms total)
T12BC 001:040 JLINK_WriteReg(R9, 0x20000114)  returns 0x00 (0000ms, 0899ms total)
T12BC 001:040 JLINK_WriteReg(R10, 0x00000000)  returns 0x00 (0000ms, 0899ms total)
T12BC 001:040 JLINK_WriteReg(R11, 0x00000000)  returns 0x00 (0000ms, 0899ms total)
T12BC 001:040 JLINK_WriteReg(R12, 0x00000000)  returns 0x00 (0000ms, 0899ms total)
T12BC 001:040 JLINK_WriteReg(R13 (SP), 0x20001000)  returns 0x00 (0000ms, 0899ms total)
T12BC 001:040 JLINK_WriteReg(R14, 0x20000001)  returns 0x00 (0000ms, 0899ms total)
T12BC 001:040 JLINK_WriteReg(R15 (PC), 0x2000007A)  returns 0x00 (0000ms, 0899ms total)
T12BC 001:040 JLINK_WriteReg(XPSR, 0x01000000)  returns 0x00 (0000ms, 0899ms total)
T12BC 001:040 JLINK_WriteReg(MSP, 0x20001000)  returns 0x00 (0000ms, 0899ms total)
T12BC 001:040 JLINK_WriteReg(PSP, 0x20001000)  returns 0x00 (0000ms, 0899ms total)
T12BC 001:040 JLINK_WriteReg(CFBP, 0x00000000)  returns 0x00 (0000ms, 0899ms total)
T12BC 001:040 JLINK_SetBPEx(Addr = 0x20000000, Type = 0xFFFFFFF2)  returns 0x00000005 (0000ms, 0899ms total)
T12BC 001:040 JLINK_Go() -- CPU_ReadMem(4 bytes @ 0xE0001000) -- CPU_WriteMem(4 bytes @ 0xE0001000) (0004ms, 0903ms total)
T12BC 001:044 JLINK_IsHalted()  returns FALSE (0001ms, 0904ms total)
T12BC 001:049 JLINK_IsHalted() -- CPU_ReadMem(2 bytes @ 0x20000000)  returns TRUE (0004ms, 0907ms total)
T12BC 001:053 JLINK_ReadReg(R15 (PC))  returns 0x20000000 (0000ms, 0903ms total)
T12BC 001:053 JLINK_ClrBPEx(BPHandle = 0x00000005)  returns 0x00 (0000ms, 0903ms total)
T12BC 001:054 JLINK_ReadReg(R0)  returns 0x00000000 (0000ms, 0904ms total)
T12BC 001:054 JLINK_WriteReg(R0, 0x00002000)  returns 0x00 (0000ms, 0904ms total)
T12BC 001:054 JLINK_WriteReg(R1, 0x00001000)  returns 0x00 (0000ms, 0904ms total)
T12BC 001:054 JLINK_WriteReg(R2, 0x000000FF)  returns 0x00 (0000ms, 0904ms total)
T12BC 001:054 JLINK_WriteReg(R3, 0x00000000)  returns 0x00 (0000ms, 0904ms total)
T12BC 001:054 JLINK_WriteReg(R4, 0x00000000)  returns 0x00 (0000ms, 0904ms total)
T12BC 001:054 JLINK_WriteReg(R5, 0x00000000)  returns 0x00 (0000ms, 0904ms total)
T12BC 001:054 JLINK_WriteReg(R6, 0x00000000)  returns 0x00 (0000ms, 0904ms total)
T12BC 001:054 JLINK_WriteReg(R7, 0x00000000)  returns 0x00 (0000ms, 0904ms total)
T12BC 001:054 JLINK_WriteReg(R8, 0x00000000)  returns 0x00 (0000ms, 0904ms total)
T12BC 001:054 JLINK_WriteReg(R9, 0x20000114)  returns 0x00 (0000ms, 0904ms total)
T12BC 001:054 JLINK_WriteReg(R10, 0x00000000)  returns 0x00 (0000ms, 0904ms total)
T12BC 001:054 JLINK_WriteReg(R11, 0x00000000)  returns 0x00 (0000ms, 0904ms total)
T12BC 001:054 JLINK_WriteReg(R12, 0x00000000)  returns 0x00 (0000ms, 0904ms total)
T12BC 001:054 JLINK_WriteReg(R13 (SP), 0x20001000)  returns 0x00 (0000ms, 0904ms total)
T12BC 001:054 JLINK_WriteReg(R14, 0x20000001)  returns 0x00 (0000ms, 0904ms total)
T12BC 001:054 JLINK_WriteReg(R15 (PC), 0x20000020)  returns 0x00 (0000ms, 0904ms total)
T12BC 001:054 JLINK_WriteReg(XPSR, 0x01000000)  returns 0x00 (0000ms, 0904ms total)
T12BC 001:054 JLINK_WriteReg(MSP, 0x20001000)  returns 0x00 (0000ms, 0904ms total)
T12BC 001:054 JLINK_WriteReg(PSP, 0x20001000)  returns 0x00 (0000ms, 0904ms total)
T12BC 001:054 JLINK_WriteReg(CFBP, 0x00000000)  returns 0x00 (0000ms, 0904ms total)
T12BC 001:055 JLINK_SetBPEx(Addr = 0x20000000, Type = 0xFFFFFFF2)  returns 0x00000006 (0000ms, 0904ms total)
T12BC 001:055 JLINK_Go() -- CPU_ReadMem(4 bytes @ 0xE0001000) -- CPU_WriteMem(4 bytes @ 0xE0001000) (0004ms, 0908ms total)
T12BC 001:059 JLINK_IsHalted() -- CPU_ReadMem(2 bytes @ 0x20000000)  returns TRUE (0005ms, 0913ms total)
T12BC 001:064 JLINK_ReadReg(R15 (PC))  returns 0x20000000 (0000ms, 0908ms total)
T12BC 001:064 JLINK_ClrBPEx(BPHandle = 0x00000006)  returns 0x00 (0000ms, 0908ms total)
T12BC 001:064 JLINK_ReadReg(R0)  returns 0x00000001 (0000ms, 0908ms total)
T12BC 001:064 JLINK_WriteReg(R0, 0x00002000)  returns 0x00 (0001ms, 0909ms total)
T12BC 001:065 JLINK_WriteReg(R1, 0x00001000)  returns 0x00 (0000ms, 0909ms total)
T12BC 001:065 JLINK_WriteReg(R2, 0x000000FF)  returns 0x00 (0000ms, 0909ms total)
T12BC 001:065 JLINK_WriteReg(R3, 0x00000000)  returns 0x00 (0000ms, 0909ms total)
T12BC 001:065 JLINK_WriteReg(R4, 0x00000000)  returns 0x00 (0000ms, 0909ms total)
T12BC 001:065 JLINK_WriteReg(R5, 0x00000000)  returns 0x00 (0000ms, 0909ms total)
T12BC 001:065 JLINK_WriteReg(R6, 0x00000000)  returns 0x00 (0000ms, 0909ms total)
T12BC 001:065 JLINK_WriteReg(R7, 0x00000000)  returns 0x00 (0000ms, 0909ms total)
T12BC 001:065 JLINK_WriteReg(R8, 0x00000000)  returns 0x00 (0000ms, 0909ms total)
T12BC 001:065 JLINK_WriteReg(R9, 0x20000114)  returns 0x00 (0000ms, 0909ms total)
T12BC 001:065 JLINK_WriteReg(R10, 0x00000000)  returns 0x00 (0000ms, 0909ms total)
T12BC 001:065 JLINK_WriteReg(R11, 0x00000000)  returns 0x00 (0000ms, 0909ms total)
T12BC 001:065 JLINK_WriteReg(R12, 0x00000000)  returns 0x00 (0000ms, 0909ms total)
T12BC 001:065 JLINK_WriteReg(R13 (SP), 0x20001000)  returns 0x00 (0000ms, 0909ms total)
T12BC 001:065 JLINK_WriteReg(R14, 0x20000001)  returns 0x00 (0000ms, 0909ms total)
T12BC 001:065 JLINK_WriteReg(R15 (PC), 0x2000007A)  returns 0x00 (0000ms, 0909ms total)
T12BC 001:065 JLINK_WriteReg(XPSR, 0x01000000)  returns 0x00 (0000ms, 0909ms total)
T12BC 001:065 JLINK_WriteReg(MSP, 0x20001000)  returns 0x00 (0000ms, 0909ms total)
T12BC 001:065 JLINK_WriteReg(PSP, 0x20001000)  returns 0x00 (0000ms, 0909ms total)
T12BC 001:065 JLINK_WriteReg(CFBP, 0x00000000)  returns 0x00 (0000ms, 0909ms total)
T12BC 001:065 JLINK_SetBPEx(Addr = 0x20000000, Type = 0xFFFFFFF2)  returns 0x00000007 (0000ms, 0909ms total)
T12BC 001:065 JLINK_Go() -- CPU_ReadMem(4 bytes @ 0xE0001000) -- CPU_WriteMem(4 bytes @ 0xE0001000) (0005ms, 0914ms total)
T12BC 001:070 JLINK_IsHalted()  returns FALSE (0001ms, 0915ms total)
T12BC 001:072 JLINK_IsHalted()  returns FALSE (0000ms, 0914ms total)
T12BC 001:073 JLINK_IsHalted() -- CPU_ReadMem(2 bytes @ 0x20000000)  returns TRUE (0004ms, 0918ms total)
T12BC 001:077 JLINK_ReadReg(R15 (PC))  returns 0x20000000 (0000ms, 0914ms total)
T12BC 001:077 JLINK_ClrBPEx(BPHandle = 0x00000007)  returns 0x00 (0000ms, 0914ms total)
T12BC 001:077 JLINK_ReadReg(R0)  returns 0x00000000 (0001ms, 0915ms total)
T12BC 001:078 JLINK_WriteReg(R0, 0x00003000)  returns 0x00 (0000ms, 0915ms total)
T12BC 001:078 JLINK_WriteReg(R1, 0x00001000)  returns 0x00 (0000ms, 0915ms total)
T12BC 001:078 JLINK_WriteReg(R2, 0x000000FF)  returns 0x00 (0000ms, 0915ms total)
T12BC 001:078 JLINK_WriteReg(R3, 0x00000000)  returns 0x00 (0000ms, 0915ms total)
T12BC 001:078 JLINK_WriteReg(R4, 0x00000000)  returns 0x00 (0000ms, 0915ms total)
T12BC 001:078 JLINK_WriteReg(R5, 0x00000000)  returns 0x00 (0000ms, 0915ms total)
T12BC 001:078 JLINK_WriteReg(R6, 0x00000000)  returns 0x00 (0000ms, 0915ms total)
T12BC 001:078 JLINK_WriteReg(R7, 0x00000000)  returns 0x00 (0000ms, 0915ms total)
T12BC 001:078 JLINK_WriteReg(R8, 0x00000000)  returns 0x00 (0000ms, 0915ms total)
T12BC 001:078 JLINK_WriteReg(R9, 0x20000114)  returns 0x00 (0000ms, 0915ms total)
T12BC 001:078 JLINK_WriteReg(R10, 0x00000000)  returns 0x00 (0000ms, 0915ms total)
T12BC 001:078 JLINK_WriteReg(R11, 0x00000000)  returns 0x00 (0000ms, 0915ms total)
T12BC 001:078 JLINK_WriteReg(R12, 0x00000000)  returns 0x00 (0000ms, 0915ms total)
T12BC 001:078 JLINK_WriteReg(R13 (SP), 0x20001000)  returns 0x00 (0000ms, 0915ms total)
T12BC 001:078 JLINK_WriteReg(R14, 0x20000001)  returns 0x00 (0000ms, 0915ms total)
T12BC 001:078 JLINK_WriteReg(R15 (PC), 0x20000020)  returns 0x00 (0000ms, 0915ms total)
T12BC 001:078 JLINK_WriteReg(XPSR, 0x01000000)  returns 0x00 (0000ms, 0915ms total)
T12BC 001:078 JLINK_WriteReg(MSP, 0x20001000)  returns 0x00 (0000ms, 0915ms total)
T12BC 001:078 JLINK_WriteReg(PSP, 0x20001000)  returns 0x00 (0000ms, 0915ms total)
T12BC 001:078 JLINK_WriteReg(CFBP, 0x00000000)  returns 0x00 (0000ms, 0915ms total)
T12BC 001:079 JLINK_SetBPEx(Addr = 0x20000000, Type = 0xFFFFFFF2)  returns 0x00000008 (0000ms, 0915ms total)
T12BC 001:079 JLINK_Go() -- CPU_ReadMem(4 bytes @ 0xE0001000) -- CPU_WriteMem(4 bytes @ 0xE0001000) (0004ms, 0919ms total)
T12BC 001:083 JLINK_IsHalted() -- CPU_ReadMem(2 bytes @ 0x20000000)  returns TRUE (0005ms, 0924ms total)
T12BC 001:088 JLINK_ReadReg(R15 (PC))  returns 0x20000000 (0000ms, 0919ms total)
T12BC 001:088 JLINK_ClrBPEx(BPHandle = 0x00000008)  returns 0x00 (0000ms, 0919ms total)
T12BC 001:088 JLINK_ReadReg(R0)  returns 0x00000001 (0000ms, 0919ms total)
T12BC 001:089 JLINK_WriteReg(R0, 0x00003000)  returns 0x00 (0000ms, 0920ms total)
T12BC 001:089 JLINK_WriteReg(R1, 0x00001000)  returns 0x00 (0000ms, 0920ms total)
T12BC 001:089 JLINK_WriteReg(R2, 0x000000FF)  returns 0x00 (0000ms, 0920ms total)
T12BC 001:089 JLINK_WriteReg(R3, 0x00000000)  returns 0x00 (0000ms, 0920ms total)
T12BC 001:089 JLINK_WriteReg(R4, 0x00000000)  returns 0x00 (0000ms, 0920ms total)
T12BC 001:089 JLINK_WriteReg(R5, 0x00000000)  returns 0x00 (0000ms, 0920ms total)
T12BC 001:089 JLINK_WriteReg(R6, 0x00000000)  returns 0x00 (0000ms, 0920ms total)
T12BC 001:089 JLINK_WriteReg(R7, 0x00000000)  returns 0x00 (0000ms, 0920ms total)
T12BC 001:089 JLINK_WriteReg(R8, 0x00000000)  returns 0x00 (0000ms, 0920ms total)
T12BC 001:089 JLINK_WriteReg(R9, 0x20000114)  returns 0x00 (0000ms, 0920ms total)
T12BC 001:089 JLINK_WriteReg(R10, 0x00000000)  returns 0x00 (0000ms, 0920ms total)
T12BC 001:089 JLINK_WriteReg(R11, 0x00000000)  returns 0x00 (0000ms, 0920ms total)
T12BC 001:089 JLINK_WriteReg(R12, 0x00000000)  returns 0x00 (0000ms, 0920ms total)
T12BC 001:089 JLINK_WriteReg(R13 (SP), 0x20001000)  returns 0x00 (0000ms, 0920ms total)
T12BC 001:089 JLINK_WriteReg(R14, 0x20000001)  returns 0x00 (0000ms, 0920ms total)
T12BC 001:089 JLINK_WriteReg(R15 (PC), 0x2000007A)  returns 0x00 (0000ms, 0920ms total)
T12BC 001:089 JLINK_WriteReg(XPSR, 0x01000000)  returns 0x00 (0000ms, 0920ms total)
T12BC 001:089 JLINK_WriteReg(MSP, 0x20001000)  returns 0x00 (0000ms, 0920ms total)
T12BC 001:089 JLINK_WriteReg(PSP, 0x20001000)  returns 0x00 (0000ms, 0920ms total)
T12BC 001:089 JLINK_WriteReg(CFBP, 0x00000000)  returns 0x00 (0000ms, 0920ms total)
T12BC 001:089 JLINK_SetBPEx(Addr = 0x20000000, Type = 0xFFFFFFF2)  returns 0x00000009 (0000ms, 0920ms total)
T12BC 001:089 JLINK_Go() -- CPU_ReadMem(4 bytes @ 0xE0001000) -- CPU_WriteMem(4 bytes @ 0xE0001000) (0004ms, 0924ms total)
T12BC 001:093 JLINK_IsHalted()  returns FALSE (0001ms, 0925ms total)
T12BC 001:095 JLINK_IsHalted()  returns FALSE (0000ms, 0924ms total)
T12BC 001:096 JLINK_IsHalted() -- CPU_ReadMem(2 bytes @ 0x20000000)  returns TRUE (0004ms, 0928ms total)
T12BC 001:100 JLINK_ReadReg(R15 (PC))  returns 0x20000000 (0000ms, 0924ms total)
T12BC 001:100 JLINK_ClrBPEx(BPHandle = 0x00000009)  returns 0x00 (0000ms, 0924ms total)
T12BC 001:100 JLINK_ReadReg(R0)  returns 0x00000000 (0000ms, 0924ms total)
T12BC 001:101 JLINK_WriteReg(R0, 0x00000001)  returns 0x00 (0000ms, 0924ms total)
T12BC 001:101 JLINK_WriteReg(R1, 0x00001000)  returns 0x00 (0000ms, 0924ms total)
T12BC 001:101 JLINK_WriteReg(R2, 0x000000FF)  returns 0x00 (0000ms, 0924ms total)
T12BC 001:101 JLINK_WriteReg(R3, 0x00000000)  returns 0x00 (0001ms, 0925ms total)
T12BC 001:102 JLINK_WriteReg(R4, 0x00000000)  returns 0x00 (0000ms, 0925ms total)
T12BC 001:102 JLINK_WriteReg(R5, 0x00000000)  returns 0x00 (0000ms, 0925ms total)
T12BC 001:102 JLINK_WriteReg(R6, 0x00000000)  returns 0x00 (0000ms, 0925ms total)
T12BC 001:102 JLINK_WriteReg(R7, 0x00000000)  returns 0x00 (0000ms, 0925ms total)
T12BC 001:102 JLINK_WriteReg(R8, 0x00000000)  returns 0x00 (0000ms, 0925ms total)
T12BC 001:102 JLINK_WriteReg(R9, 0x20000114)  returns 0x00 (0000ms, 0925ms total)
T12BC 001:102 JLINK_WriteReg(R10, 0x00000000)  returns 0x00 (0000ms, 0925ms total)
T12BC 001:102 JLINK_WriteReg(R11, 0x00000000)  returns 0x00 (0000ms, 0925ms total)
T12BC 001:102 JLINK_WriteReg(R12, 0x00000000)  returns 0x00 (0000ms, 0925ms total)
T12BC 001:102 JLINK_WriteReg(R13 (SP), 0x20001000)  returns 0x00 (0000ms, 0925ms total)
T12BC 001:102 JLINK_WriteReg(R14, 0x20000001)  returns 0x00 (0000ms, 0925ms total)
T12BC 001:102 JLINK_WriteReg(R15 (PC), 0x2000003C)  returns 0x00 (0000ms, 0925ms total)
T12BC 001:102 JLINK_WriteReg(XPSR, 0x01000000)  returns 0x00 (0000ms, 0925ms total)
T12BC 001:102 JLINK_WriteReg(MSP, 0x20001000)  returns 0x00 (0000ms, 0925ms total)
T12BC 001:102 JLINK_WriteReg(PSP, 0x20001000)  returns 0x00 (0000ms, 0925ms total)
T12BC 001:102 JLINK_WriteReg(CFBP, 0x00000000)  returns 0x00 (0000ms, 0925ms total)
T12BC 001:102 JLINK_SetBPEx(Addr = 0x20000000, Type = 0xFFFFFFF2)  returns 0x0000000A (0000ms, 0925ms total)
T12BC 001:102 JLINK_Go() -- CPU_ReadMem(4 bytes @ 0xE0001000) -- CPU_WriteMem(4 bytes @ 0xE0001000) (0005ms, 0930ms total)
T12BC 001:107 JLINK_IsHalted() -- CPU_ReadMem(2 bytes @ 0x20000000)  returns TRUE (0005ms, 0935ms total)
T12BC 001:112 JLINK_ReadReg(R15 (PC))  returns 0x20000000 (0000ms, 0930ms total)
T12BC 001:112 JLINK_ClrBPEx(BPHandle = 0x0000000A)  returns 0x00 (0000ms, 0930ms total)
T12BC 001:112 JLINK_ReadReg(R0)  returns 0x00000000 (0001ms, 0931ms total)
T12BC 001:173 JLINK_WriteMem(0x20000000, 0x0118 Bytes, ...) - Data: 00 BE 0A E0 0D 78 2D 06 68 40 08 24 40 00 00 D3 ... -- CPU_WriteMem(280 bytes @ 0x20000000)  returns 0x118 (0004ms, 0935ms total)
T12BC 001:177 JLINK_WriteReg(R0, 0x00000000)  returns 0x00 (0000ms, 0935ms total)
T12BC 001:177 JLINK_WriteReg(R1, 0x00B71B00)  returns 0x00 (0001ms, 0936ms total)
T12BC 001:178 JLINK_WriteReg(R2, 0x00000002)  returns 0x00 (0000ms, 0936ms total)
T12BC 001:178 JLINK_WriteReg(R3, 0x00000000)  returns 0x00 (0000ms, 0936ms total)
T12BC 001:178 JLINK_WriteReg(R4, 0x00000000)  returns 0x00 (0000ms, 0936ms total)
T12BC 001:178 JLINK_WriteReg(R5, 0x00000000)  returns 0x00 (0000ms, 0936ms total)
T12BC 001:178 JLINK_WriteReg(R6, 0x00000000)  returns 0x00 (0000ms, 0936ms total)
T12BC 001:178 JLINK_WriteReg(R7, 0x00000000)  returns 0x00 (0000ms, 0936ms total)
T12BC 001:178 JLINK_WriteReg(R8, 0x00000000)  returns 0x00 (0000ms, 0936ms total)
T12BC 001:178 JLINK_WriteReg(R9, 0x20000114)  returns 0x00 (0000ms, 0936ms total)
T12BC 001:178 JLINK_WriteReg(R10, 0x00000000)  returns 0x00 (0000ms, 0936ms total)
T12BC 001:178 JLINK_WriteReg(R11, 0x00000000)  returns 0x00 (0000ms, 0936ms total)
T12BC 001:178 JLINK_WriteReg(R12, 0x00000000)  returns 0x00 (0000ms, 0936ms total)
T12BC 001:178 JLINK_WriteReg(R13 (SP), 0x20001000)  returns 0x00 (0000ms, 0936ms total)
T12BC 001:178 JLINK_WriteReg(R14, 0x20000001)  returns 0x00 (0000ms, 0936ms total)
T12BC 001:178 JLINK_WriteReg(R15 (PC), 0x20000038)  returns 0x00 (0000ms, 0936ms total)
T12BC 001:178 JLINK_WriteReg(XPSR, 0x01000000)  returns 0x00 (0000ms, 0936ms total)
T12BC 001:178 JLINK_WriteReg(MSP, 0x20001000)  returns 0x00 (0000ms, 0936ms total)
T12BC 001:178 JLINK_WriteReg(PSP, 0x20001000)  returns 0x00 (0000ms, 0936ms total)
T12BC 001:178 JLINK_WriteReg(CFBP, 0x00000000)  returns 0x00 (0000ms, 0936ms total)
T12BC 001:178 JLINK_SetBPEx(Addr = 0x20000000, Type = 0xFFFFFFF2) -- CPU_ReadMem(4 bytes @ 0x20000000) -- CPU_WriteMem(4 bytes @ 0x20000000) -- CPU_ReadMem(4 bytes @ 0x20000000) -- CPU_WriteMem(4 bytes @ 0x20000000) -- CPU_ReadMem(2 bytes @ 0x20000000)  returns 0x0000000B (0007ms, 0943ms total)
T12BC 001:185 JLINK_Go() -- CPU_WriteMem(2 bytes @ 0x20000000) -- CPU_ReadMem(4 bytes @ 0xE0001000) -- CPU_WriteMem(4 bytes @ 0xE0001000) (0006ms, 0949ms total)
T12BC 001:191 JLINK_IsHalted() -- CPU_ReadMem(2 bytes @ 0x20000000)  returns TRUE (0005ms, 0954ms total)
T12BC 001:196 JLINK_ReadReg(R15 (PC))  returns 0x20000000 (0000ms, 0949ms total)
T12BC 001:196 JLINK_ClrBPEx(BPHandle = 0x0000000B)  returns 0x00 (0000ms, 0949ms total)
T12BC 001:196 JLINK_ReadReg(R0)  returns 0x00000000 (0001ms, 0950ms total)
T12BC 001:197 JLINK_WriteMem(0x20000118, 0x0080 Bytes, ...) - Data: 98 30 00 20 99 01 00 00 A1 01 00 00 A3 01 00 00 ... -- CPU_WriteMem(128 bytes @ 0x20000118)  returns 0x80 (0002ms, 0952ms total)
T12BC 001:199 JLINK_WriteReg(R0, 0x00000000)  returns 0x00 (0000ms, 0952ms total)
T12BC 001:199 JLINK_WriteReg(R1, 0x00000080)  returns 0x00 (0000ms, 0952ms total)
T12BC 001:199 JLINK_WriteReg(R2, 0x20000118)  returns 0x00 (0000ms, 0952ms total)
T12BC 001:200 JLINK_WriteReg(R3, 0x00000000)  returns 0x00 (0000ms, 0952ms total)
T12BC 001:200 JLINK_WriteReg(R4, 0x00000000)  returns 0x00 (0000ms, 0952ms total)
T12BC 001:200 JLINK_WriteReg(R5, 0x00000000)  returns 0x00 (0000ms, 0952ms total)
T12BC 001:200 JLINK_WriteReg(R6, 0x00000000)  returns 0x00 (0000ms, 0952ms total)
T12BC 001:200 JLINK_WriteReg(R7, 0x00000000)  returns 0x00 (0000ms, 0952ms total)
T12BC 001:200 JLINK_WriteReg(R8, 0x00000000)  returns 0x00 (0000ms, 0952ms total)
T12BC 001:200 JLINK_WriteReg(R9, 0x20000114)  returns 0x00 (0000ms, 0952ms total)
T12BC 001:200 JLINK_WriteReg(R10, 0x00000000)  returns 0x00 (0000ms, 0952ms total)
T12BC 001:200 JLINK_WriteReg(R11, 0x00000000)  returns 0x00 (0000ms, 0952ms total)
T12BC 001:200 JLINK_WriteReg(R12, 0x00000000)  returns 0x00 (0000ms, 0952ms total)
T12BC 001:200 JLINK_WriteReg(R13 (SP), 0x20001000)  returns 0x00 (0000ms, 0952ms total)
T12BC 001:200 JLINK_WriteReg(R14, 0x20000001)  returns 0x00 (0000ms, 0952ms total)
T12BC 001:200 JLINK_WriteReg(R15 (PC), 0x200000B2)  returns 0x00 (0000ms, 0952ms total)
T12BC 001:200 JLINK_WriteReg(XPSR, 0x01000000)  returns 0x00 (0000ms, 0952ms total)
T12BC 001:200 JLINK_WriteReg(MSP, 0x20001000)  returns 0x00 (0000ms, 0952ms total)
T12BC 001:200 JLINK_WriteReg(PSP, 0x20001000)  returns 0x00 (0000ms, 0952ms total)
T12BC 001:200 JLINK_WriteReg(CFBP, 0x00000000)  returns 0x00 (0000ms, 0952ms total)
T12BC 001:200 JLINK_SetBPEx(Addr = 0x20000000, Type = 0xFFFFFFF2)  returns 0x0000000C (0000ms, 0952ms total)
T12BC 001:200 JLINK_Go() -- CPU_ReadMem(4 bytes @ 0xE0001000) -- CPU_WriteMem(4 bytes @ 0xE0001000) (0005ms, 0957ms total)
T12BC 001:205 JLINK_IsHalted()  returns FALSE (0001ms, 0958ms total)
T12BC 001:217 JLINK_IsHalted() -- CPU_ReadMem(2 bytes @ 0x20000000)  returns TRUE (0004ms, 0961ms total)
T12BC 001:221 JLINK_ReadReg(R15 (PC))  returns 0x20000000 (0001ms, 0958ms total)
T12BC 001:222 JLINK_ClrBPEx(BPHandle = 0x0000000C)  returns 0x00 (0000ms, 0958ms total)
T12BC 001:222 JLINK_ReadReg(R0)  returns 0x00000000 (0000ms, 0958ms total)
T12BC 001:223 JLINK_WriteMem(0x20000118, 0x0080 Bytes, ...) - Data: AB 01 00 00 AB 01 00 00 AB 01 00 00 00 00 00 00 ... -- CPU_WriteMem(128 bytes @ 0x20000118)  returns 0x80 (0002ms, 0960ms total)
T12BC 001:225 JLINK_WriteReg(R0, 0x00000080)  returns 0x00 (0000ms, 0960ms total)
T12BC 001:225 JLINK_WriteReg(R1, 0x00000080)  returns 0x00 (0000ms, 0960ms total)
T12BC 001:225 JLINK_WriteReg(R2, 0x20000118)  returns 0x00 (0000ms, 0960ms total)
T12BC 001:225 JLINK_WriteReg(R3, 0x00000000)  returns 0x00 (0001ms, 0961ms total)
T12BC 001:226 JLINK_WriteReg(R4, 0x00000000)  returns 0x00 (0000ms, 0961ms total)
T12BC 001:226 JLINK_WriteReg(R5, 0x00000000)  returns 0x00 (0000ms, 0961ms total)
T12BC 001:226 JLINK_WriteReg(R6, 0x00000000)  returns 0x00 (0000ms, 0961ms total)
T12BC 001:226 JLINK_WriteReg(R7, 0x00000000)  returns 0x00 (0000ms, 0961ms total)
T12BC 001:226 JLINK_WriteReg(R8, 0x00000000)  returns 0x00 (0000ms, 0961ms total)
T12BC 001:226 JLINK_WriteReg(R9, 0x20000114)  returns 0x00 (0000ms, 0961ms total)
T12BC 001:226 JLINK_WriteReg(R10, 0x00000000)  returns 0x00 (0000ms, 0961ms total)
T12BC 001:226 JLINK_WriteReg(R11, 0x00000000)  returns 0x00 (0000ms, 0961ms total)
T12BC 001:226 JLINK_WriteReg(R12, 0x00000000)  returns 0x00 (0000ms, 0961ms total)
T12BC 001:226 JLINK_WriteReg(R13 (SP), 0x20001000)  returns 0x00 (0000ms, 0961ms total)
T12BC 001:226 JLINK_WriteReg(R14, 0x20000001)  returns 0x00 (0000ms, 0961ms total)
T12BC 001:226 JLINK_WriteReg(R15 (PC), 0x200000B2)  returns 0x00 (0000ms, 0961ms total)
T12BC 001:226 JLINK_WriteReg(XPSR, 0x01000000)  returns 0x00 (0000ms, 0961ms total)
T12BC 001:226 JLINK_WriteReg(MSP, 0x20001000)  returns 0x00 (0000ms, 0961ms total)
T12BC 001:226 JLINK_WriteReg(PSP, 0x20001000)  returns 0x00 (0000ms, 0961ms total)
T12BC 001:226 JLINK_WriteReg(CFBP, 0x00000000)  returns 0x00 (0000ms, 0961ms total)
T12BC 001:226 JLINK_SetBPEx(Addr = 0x20000000, Type = 0xFFFFFFF2)  returns 0x0000000D (0000ms, 0961ms total)
T12BC 001:226 JLINK_Go() -- CPU_ReadMem(4 bytes @ 0xE0001000) -- CPU_WriteMem(4 bytes @ 0xE0001000) (0005ms, 0966ms total)
T12BC 001:231 JLINK_IsHalted()  returns FALSE (0001ms, 0967ms total)
T12BC 001:233 JLINK_IsHalted() -- CPU_ReadMem(2 bytes @ 0x20000000)  returns TRUE (0004ms, 0970ms total)
T12BC 001:237 JLINK_ReadReg(R15 (PC))  returns 0x20000000 (0000ms, 0966ms total)
T12BC 001:237 JLINK_ClrBPEx(BPHandle = 0x0000000D)  returns 0x00 (0000ms, 0966ms total)
T12BC 001:237 JLINK_ReadReg(R0)  returns 0x00000000 (0001ms, 0967ms total)
T12BC 001:238 JLINK_WriteMem(0x20000118, 0x0080 Bytes, ...) - Data: 20 2F 00 00 00 23 00 24 00 25 00 26 10 3A 01 D3 ... -- CPU_WriteMem(128 bytes @ 0x20000118)  returns 0x80 (0002ms, 0969ms total)
T12BC 001:240 JLINK_WriteReg(R0, 0x00000100)  returns 0x00 (0000ms, 0969ms total)
T12BC 001:240 JLINK_WriteReg(R1, 0x00000080)  returns 0x00 (0000ms, 0969ms total)
T12BC 001:240 JLINK_WriteReg(R2, 0x20000118)  returns 0x00 (0001ms, 0970ms total)
T12BC 001:241 JLINK_WriteReg(R3, 0x00000000)  returns 0x00 (0000ms, 0970ms total)
T12BC 001:241 JLINK_WriteReg(R4, 0x00000000)  returns 0x00 (0000ms, 0970ms total)
T12BC 001:241 JLINK_WriteReg(R5, 0x00000000)  returns 0x00 (0000ms, 0970ms total)
T12BC 001:241 JLINK_WriteReg(R6, 0x00000000)  returns 0x00 (0000ms, 0970ms total)
T12BC 001:241 JLINK_WriteReg(R7, 0x00000000)  returns 0x00 (0000ms, 0970ms total)
T12BC 001:241 JLINK_WriteReg(R8, 0x00000000)  returns 0x00 (0000ms, 0970ms total)
T12BC 001:241 JLINK_WriteReg(R9, 0x20000114)  returns 0x00 (0000ms, 0970ms total)
T12BC 001:241 JLINK_WriteReg(R10, 0x00000000)  returns 0x00 (0000ms, 0970ms total)
T12BC 001:241 JLINK_WriteReg(R11, 0x00000000)  returns 0x00 (0000ms, 0970ms total)
T12BC 001:241 JLINK_WriteReg(R12, 0x00000000)  returns 0x00 (0000ms, 0970ms total)
T12BC 001:241 JLINK_WriteReg(R13 (SP), 0x20001000)  returns 0x00 (0000ms, 0970ms total)
T12BC 001:241 JLINK_WriteReg(R14, 0x20000001)  returns 0x00 (0000ms, 0970ms total)
T12BC 001:241 JLINK_WriteReg(R15 (PC), 0x200000B2)  returns 0x00 (0000ms, 0970ms total)
T12BC 001:241 JLINK_WriteReg(XPSR, 0x01000000)  returns 0x00 (0000ms, 0970ms total)
T12BC 001:241 JLINK_WriteReg(MSP, 0x20001000)  returns 0x00 (0000ms, 0970ms total)
T12BC 001:241 JLINK_WriteReg(PSP, 0x20001000)  returns 0x00 (0000ms, 0970ms total)
T12BC 001:241 JLINK_WriteReg(CFBP, 0x00000000)  returns 0x00 (0000ms, 0970ms total)
T12BC 001:241 JLINK_SetBPEx(Addr = 0x20000000, Type = 0xFFFFFFF2)  returns 0x0000000E (0000ms, 0970ms total)
T12BC 001:241 JLINK_Go() -- CPU_ReadMem(4 bytes @ 0xE0001000) -- CPU_WriteMem(4 bytes @ 0xE0001000) (0005ms, 0975ms total)
T12BC 001:246 JLINK_IsHalted()  returns FALSE (0001ms, 0976ms total)
T12BC 001:251 JLINK_IsHalted() -- CPU_ReadMem(2 bytes @ 0x20000000)  returns TRUE (0004ms, 0979ms total)
T12BC 001:255 JLINK_ReadReg(R15 (PC))  returns 0x20000000 (0000ms, 0975ms total)
T12BC 001:255 JLINK_ClrBPEx(BPHandle = 0x0000000E)  returns 0x00 (0000ms, 0975ms total)
T12BC 001:256 JLINK_ReadReg(R0)  returns 0x00000000 (0000ms, 0975ms total)
T12BC 001:256 JLINK_WriteMem(0x20000118, 0x0080 Bytes, ...) - Data: 07 D3 01 CC 01 C5 36 1F 03 E0 21 78 29 70 64 1C ... -- CPU_WriteMem(128 bytes @ 0x20000118)  returns 0x80 (0002ms, 0977ms total)
T12BC 001:258 JLINK_WriteReg(R0, 0x00000180)  returns 0x00 (0000ms, 0977ms total)
T12BC 001:258 JLINK_WriteReg(R1, 0x00000080)  returns 0x00 (0000ms, 0977ms total)
T12BC 001:258 JLINK_WriteReg(R2, 0x20000118)  returns 0x00 (0000ms, 0977ms total)
T12BC 001:258 JLINK_WriteReg(R3, 0x00000000)  returns 0x00 (0000ms, 0977ms total)
T12BC 001:258 JLINK_WriteReg(R4, 0x00000000)  returns 0x00 (0000ms, 0977ms total)
T12BC 001:258 JLINK_WriteReg(R5, 0x00000000)  returns 0x00 (0000ms, 0977ms total)
T12BC 001:258 JLINK_WriteReg(R6, 0x00000000)  returns 0x00 (0001ms, 0978ms total)
T12BC 001:259 JLINK_WriteReg(R7, 0x00000000)  returns 0x00 (0000ms, 0978ms total)
T12BC 001:259 JLINK_WriteReg(R8, 0x00000000)  returns 0x00 (0000ms, 0978ms total)
T12BC 001:259 JLINK_WriteReg(R9, 0x20000114)  returns 0x00 (0000ms, 0978ms total)
T12BC 001:259 JLINK_WriteReg(R10, 0x00000000)  returns 0x00 (0000ms, 0978ms total)
T12BC 001:259 JLINK_WriteReg(R11, 0x00000000)  returns 0x00 (0000ms, 0978ms total)
T12BC 001:259 JLINK_WriteReg(R12, 0x00000000)  returns 0x00 (0000ms, 0978ms total)
T12BC 001:259 JLINK_WriteReg(R13 (SP), 0x20001000)  returns 0x00 (0000ms, 0978ms total)
T12BC 001:259 JLINK_WriteReg(R14, 0x20000001)  returns 0x00 (0000ms, 0978ms total)
T12BC 001:259 JLINK_WriteReg(R15 (PC), 0x200000B2)  returns 0x00 (0000ms, 0978ms total)
T12BC 001:259 JLINK_WriteReg(XPSR, 0x01000000)  returns 0x00 (0000ms, 0978ms total)
T12BC 001:259 JLINK_WriteReg(MSP, 0x20001000)  returns 0x00 (0000ms, 0978ms total)
T12BC 001:259 JLINK_WriteReg(PSP, 0x20001000)  returns 0x00 (0000ms, 0978ms total)
T12BC 001:259 JLINK_WriteReg(CFBP, 0x00000000)  returns 0x00 (0000ms, 0978ms total)
T12BC 001:259 JLINK_SetBPEx(Addr = 0x20000000, Type = 0xFFFFFFF2)  returns 0x0000000F (0000ms, 0978ms total)
T12BC 001:259 JLINK_Go() -- CPU_ReadMem(4 bytes @ 0xE0001000) -- CPU_WriteMem(4 bytes @ 0xE0001000) (0005ms, 0983ms total)
T12BC 001:264 JLINK_IsHalted()  returns FALSE (0001ms, 0984ms total)
T12BC 001:268 JLINK_IsHalted() -- CPU_ReadMem(2 bytes @ 0x20000000)  returns TRUE (0004ms, 0987ms total)
T12BC 001:272 JLINK_ReadReg(R15 (PC))  returns 0x20000000 (0000ms, 0983ms total)
T12BC 001:272 JLINK_ClrBPEx(BPHandle = 0x0000000F)  returns 0x00 (0000ms, 0983ms total)
T12BC 001:272 JLINK_ReadReg(R0)  returns 0x00000000 (0001ms, 0984ms total)
T12BC 001:273 JLINK_WriteMem(0x20000118, 0x0080 Bytes, ...) - Data: 20 26 C0 07 07 D0 70 BD 62 68 30 46 A1 68 90 47 ... -- CPU_WriteMem(128 bytes @ 0x20000118)  returns 0x80 (0002ms, 0986ms total)
T12BC 001:275 JLINK_WriteReg(R0, 0x00000200)  returns 0x00 (0000ms, 0986ms total)
T12BC 001:275 JLINK_WriteReg(R1, 0x00000080)  returns 0x00 (0000ms, 0986ms total)
T12BC 001:275 JLINK_WriteReg(R2, 0x20000118)  returns 0x00 (0001ms, 0987ms total)
T12BC 001:276 JLINK_WriteReg(R3, 0x00000000)  returns 0x00 (0000ms, 0987ms total)
T12BC 001:276 JLINK_WriteReg(R4, 0x00000000)  returns 0x00 (0000ms, 0987ms total)
T12BC 001:276 JLINK_WriteReg(R5, 0x00000000)  returns 0x00 (0000ms, 0987ms total)
T12BC 001:276 JLINK_WriteReg(R6, 0x00000000)  returns 0x00 (0000ms, 0987ms total)
T12BC 001:276 JLINK_WriteReg(R7, 0x00000000)  returns 0x00 (0000ms, 0987ms total)
T12BC 001:276 JLINK_WriteReg(R8, 0x00000000)  returns 0x00 (0000ms, 0987ms total)
T12BC 001:276 JLINK_WriteReg(R9, 0x20000114)  returns 0x00 (0000ms, 0987ms total)
T12BC 001:276 JLINK_WriteReg(R10, 0x00000000)  returns 0x00 (0000ms, 0987ms total)
T12BC 001:276 JLINK_WriteReg(R11, 0x00000000)  returns 0x00 (0000ms, 0987ms total)
T12BC 001:276 JLINK_WriteReg(R12, 0x00000000)  returns 0x00 (0000ms, 0987ms total)
T12BC 001:276 JLINK_WriteReg(R13 (SP), 0x20001000)  returns 0x00 (0000ms, 0987ms total)
T12BC 001:276 JLINK_WriteReg(R14, 0x20000001)  returns 0x00 (0000ms, 0987ms total)
T12BC 001:276 JLINK_WriteReg(R15 (PC), 0x200000B2)  returns 0x00 (0000ms, 0987ms total)
T12BC 001:276 JLINK_WriteReg(XPSR, 0x01000000)  returns 0x00 (0000ms, 0987ms total)
T12BC 001:276 JLINK_WriteReg(MSP, 0x20001000)  returns 0x00 (0000ms, 0987ms total)
T12BC 001:276 JLINK_WriteReg(PSP, 0x20001000)  returns 0x00 (0000ms, 0987ms total)
T12BC 001:276 JLINK_WriteReg(CFBP, 0x00000000)  returns 0x00 (0000ms, 0987ms total)
T12BC 001:276 JLINK_SetBPEx(Addr = 0x20000000, Type = 0xFFFFFFF2)  returns 0x00000010 (0000ms, 0987ms total)
T12BC 001:276 JLINK_Go() -- CPU_ReadMem(4 bytes @ 0xE0001000) -- CPU_WriteMem(4 bytes @ 0xE0001000) (0005ms, 0992ms total)
T12BC 001:281 JLINK_IsHalted()  returns FALSE (0001ms, 0993ms total)
T12BC 001:283 JLINK_IsHalted() -- CPU_ReadMem(2 bytes @ 0x20000000)  returns TRUE (0004ms, 0996ms total)
T12BC 001:287 JLINK_ReadReg(R15 (PC))  returns 0x20000000 (0000ms, 0992ms total)
T12BC 001:287 JLINK_ClrBPEx(BPHandle = 0x00000010)  returns 0x00 (0000ms, 0992ms total)
T12BC 001:287 JLINK_ReadReg(R0)  returns 0x00000000 (0001ms, 0993ms total)
T12BC 001:288 JLINK_WriteMem(0x20000118, 0x0080 Bytes, ...) - Data: 39 FC 30 31 39 55 64 1C 00 28 F8 D1 2B 46 32 46 ... -- CPU_WriteMem(128 bytes @ 0x20000118)  returns 0x80 (0002ms, 0995ms total)
T12BC 001:290 JLINK_WriteReg(R0, 0x00000280)  returns 0x00 (0000ms, 0995ms total)
T12BC 001:290 JLINK_WriteReg(R1, 0x00000080)  returns 0x00 (0000ms, 0995ms total)
T12BC 001:290 JLINK_WriteReg(R2, 0x20000118)  returns 0x00 (0000ms, 0995ms total)
T12BC 001:290 JLINK_WriteReg(R3, 0x00000000)  returns 0x00 (0001ms, 0996ms total)
T12BC 001:291 JLINK_WriteReg(R4, 0x00000000)  returns 0x00 (0000ms, 0996ms total)
T12BC 001:291 JLINK_WriteReg(R5, 0x00000000)  returns 0x00 (0000ms, 0996ms total)
T12BC 001:291 JLINK_WriteReg(R6, 0x00000000)  returns 0x00 (0000ms, 0996ms total)
T12BC 001:291 JLINK_WriteReg(R7, 0x00000000)  returns 0x00 (0000ms, 0996ms total)
T12BC 001:291 JLINK_WriteReg(R8, 0x00000000)  returns 0x00 (0000ms, 0996ms total)
T12BC 001:291 JLINK_WriteReg(R9, 0x20000114)  returns 0x00 (0000ms, 0996ms total)
T12BC 001:291 JLINK_WriteReg(R10, 0x00000000)  returns 0x00 (0000ms, 0996ms total)
T12BC 001:291 JLINK_WriteReg(R11, 0x00000000)  returns 0x00 (0000ms, 0996ms total)
T12BC 001:291 JLINK_WriteReg(R12, 0x00000000)  returns 0x00 (0000ms, 0996ms total)
T12BC 001:291 JLINK_WriteReg(R13 (SP), 0x20001000)  returns 0x00 (0000ms, 0996ms total)
T12BC 001:291 JLINK_WriteReg(R14, 0x20000001)  returns 0x00 (0000ms, 0996ms total)
T12BC 001:291 JLINK_WriteReg(R15 (PC), 0x200000B2)  returns 0x00 (0000ms, 0996ms total)
T12BC 001:291 JLINK_WriteReg(XPSR, 0x01000000)  returns 0x00 (0000ms, 0996ms total)
T12BC 001:291 JLINK_WriteReg(MSP, 0x20001000)  returns 0x00 (0000ms, 0996ms total)
T12BC 001:291 JLINK_WriteReg(PSP, 0x20001000)  returns 0x00 (0000ms, 0996ms total)
T12BC 001:291 JLINK_WriteReg(CFBP, 0x00000000)  returns 0x00 (0000ms, 0996ms total)
T12BC 001:291 JLINK_SetBPEx(Addr = 0x20000000, Type = 0xFFFFFFF2)  returns 0x00000011 (0000ms, 0996ms total)
T12BC 001:291 JLINK_Go() -- CPU_ReadMem(4 bytes @ 0xE0001000) -- CPU_WriteMem(4 bytes @ 0xE0001000) (0005ms, 1001ms total)
T12BC 001:296 JLINK_IsHalted()  returns FALSE (0001ms, 1002ms total)
T12BC 001:298 JLINK_IsHalted() -- CPU_ReadMem(2 bytes @ 0x20000000)  returns TRUE (0004ms, 1005ms total)
T12BC 001:302 JLINK_ReadReg(R15 (PC))  returns 0x20000000 (0000ms, 1001ms total)
T12BC 001:302 JLINK_ClrBPEx(BPHandle = 0x00000011)  returns 0x00 (0000ms, 1001ms total)
T12BC 001:302 JLINK_ReadReg(R0)  returns 0x00000000 (0000ms, 1001ms total)
T12BC 001:303 JLINK_WriteMem(0x20000118, 0x0080 Bytes, ...) - Data: 10 32 F9 E7 70 B5 04 46 0D 46 21 46 10 68 C0 46 ... -- CPU_WriteMem(128 bytes @ 0x20000118)  returns 0x80 (0002ms, 1003ms total)
T12BC 001:305 JLINK_WriteReg(R0, 0x00000300)  returns 0x00 (0000ms, 1003ms total)
T12BC 001:305 JLINK_WriteReg(R1, 0x00000080)  returns 0x00 (0000ms, 1003ms total)
T12BC 001:305 JLINK_WriteReg(R2, 0x20000118)  returns 0x00 (0001ms, 1004ms total)
T12BC 001:306 JLINK_WriteReg(R3, 0x00000000)  returns 0x00 (0000ms, 1004ms total)
T12BC 001:306 JLINK_WriteReg(R4, 0x00000000)  returns 0x00 (0000ms, 1004ms total)
T12BC 001:306 JLINK_WriteReg(R5, 0x00000000)  returns 0x00 (0000ms, 1004ms total)
T12BC 001:306 JLINK_WriteReg(R6, 0x00000000)  returns 0x00 (0000ms, 1004ms total)
T12BC 001:306 JLINK_WriteReg(R7, 0x00000000)  returns 0x00 (0000ms, 1004ms total)
T12BC 001:306 JLINK_WriteReg(R8, 0x00000000)  returns 0x00 (0000ms, 1004ms total)
T12BC 001:306 JLINK_WriteReg(R9, 0x20000114)  returns 0x00 (0000ms, 1004ms total)
T12BC 001:306 JLINK_WriteReg(R10, 0x00000000)  returns 0x00 (0000ms, 1004ms total)
T12BC 001:306 JLINK_WriteReg(R11, 0x00000000)  returns 0x00 (0000ms, 1004ms total)
T12BC 001:306 JLINK_WriteReg(R12, 0x00000000)  returns 0x00 (0000ms, 1004ms total)
T12BC 001:306 JLINK_WriteReg(R13 (SP), 0x20001000)  returns 0x00 (0000ms, 1004ms total)
T12BC 001:306 JLINK_WriteReg(R14, 0x20000001)  returns 0x00 (0000ms, 1004ms total)
T12BC 001:306 JLINK_WriteReg(R15 (PC), 0x200000B2)  returns 0x00 (0000ms, 1004ms total)
T12BC 001:306 JLINK_WriteReg(XPSR, 0x01000000)  returns 0x00 (0000ms, 1004ms total)
T12BC 001:306 JLINK_WriteReg(MSP, 0x20001000)  returns 0x00 (0000ms, 1004ms total)
T12BC 001:306 JLINK_WriteReg(PSP, 0x20001000)  returns 0x00 (0000ms, 1004ms total)
